T34F4 000:008.281   SEGGER J-Link V8.16 Log File
T34F4 000:008.485   DLL Compiled: Feb 26 2025 12:07:26
T34F4 000:008.532   Logging started @ 2026-09-07 06:16
T34F4 000:008.576   Process: C:\Users\EVC2-5\AppData\Local\Keil_v5\UV4\UV4.exe
T34F4 000:008.632 - 8.619ms 
T34F4 000:008.683 JLINK_SetWarnOutHandler(...)
T34F4 000:008.728 - 0.046ms 
T34F4 000:008.816 JLINK_OpenEx(...)
T34F4 000:031.853   Firmware: J-Link V9 compiled May  7 2021 16:26:12
T34F4 000:033.549   Firmware: J-Link V9 compiled May  7 2021 16:26:12
T34F4 000:033.840   Decompressing FW timestamp took 159 us
T34F4 000:041.591   Hardware: V9.70
T34F4 000:041.693   S/N: 63728516
T34F4 000:041.756   OEM: SEGGER
T34F4 000:041.818   Feature(s): GDB, RDI, FlashBP, FlashDL, JFlash
T34F4 000:043.051   Bootloader: (FW returned invalid version)
T34F4 000:044.432   TELNET listener socket opened on port 19021
T34F4 000:044.736   WEBSRV WEBSRV_Init(): Starting webserver thread(s)
T34F4 000:046.748   WEBSRV Webserver running on local port 19080
T34F4 000:047.024   Looking for J-Link GUI Server exe at: C:\Users\EVC2-5\AppData\Local\Keil_v5\ARM\Segger\JLinkGUIServer.exe
T34F4 000:047.235   Looking for J-Link GUI Server exe at: C:\Program Files\SEGGER\JLink_V960\JLinkGUIServer.exe
T34F4 000:047.374   Forking J-Link GUI Server: C:\Program Files\SEGGER\JLink_V960\JLinkGUIServer.exe
T34F4 000:207.182   J-Link GUI Server info: "J-Link GUI server V9.60 "
T34F4 000:213.031 - 204.208ms returns "O.K."
T34F4 000:213.137 JLINK_GetEmuCaps()
T34F4 000:213.186 - 0.045ms returns 0xB9FF7BBF
T34F4 000:213.235 JLINK_TIF_GetAvailable(...)
T34F4 000:213.521 - 0.287ms 
T34F4 000:213.592 JLINK_SetErrorOutHandler(...)
T34F4 000:213.637 - 0.044ms 
T34F4 000:213.740 JLINK_ExecCommand("ProjectFile = "C:\Users\EVC2-5\Desktop\stm32h743vit6_demo\H743_QSPI_FLASH_BOOT\JLinkSettings.ini"", ...). 
T34F4 000:243.729 - 29.990ms returns 0x00
T34F4 000:246.579 JLINK_ExecCommand("Device = STM32H743VITx", ...). 
T34F4 000:248.702   Flash bank @ 0x08000000: SFL: Parsing sectorization info from ELF file
T34F4 000:248.817     FlashDevice.SectorInfo[0]: .SectorSize = 0x00020000, .SectorStartAddr = 0x00000000
T34F4 000:248.881   FlashBank @0x08000000: Sectorization info from SFL ELF file ignored because sectorization override from DLL / XML file is active.
T34F4 000:249.545   Flash bank @ 0x08100000: SFL: Parsing sectorization info from ELF file
T34F4 000:249.616     FlashDevice.SectorInfo[0]: .SectorSize = 0x00020000, .SectorStartAddr = 0x00000000
T34F4 000:249.681   FlashBank @0x08100000: Sectorization info from SFL ELF file ignored because sectorization override from DLL / XML file is active.
T34F4 000:250.362   Flash bank @ 0x90000000: SFL: Parsing sectorization info from ELF file
T34F4 000:250.434     FlashDevice.SectorInfo[0]: .SectorSize = 0x00010000, .SectorStartAddr = 0x00000000
T34F4 000:284.707   Device "STM32H743VI" selected.
T34F4 000:289.110 - 42.445ms returns 0x00
T34F4 000:289.190 JLINK_ExecCommand("DisableConnectionTimeout", ...). 
T34F4 000:289.335   ERROR: Unknown command
T34F4 000:289.400 - 0.077ms returns 0x01
T34F4 000:289.445 JLINK_GetHardwareVersion()
T34F4 000:289.487 - 0.042ms returns 97000
T34F4 000:289.531 JLINK_GetDLLVersion()
T34F4 000:289.573 - 0.041ms returns 81600
T34F4 000:289.616 JLINK_GetOEMString(...)
T34F4 000:289.694 JLINK_GetFirmwareString(...)
T34F4 000:289.737 - 0.042ms 
T34F4 000:298.083 JLINK_GetDLLVersion()
T34F4 000:298.173 - 0.090ms returns 81600
T34F4 000:298.220 JLINK_GetCompileDateTime()
T34F4 000:298.263 - 0.042ms 
T34F4 000:301.170 JLINK_GetFirmwareString(...)
T34F4 000:301.256 - 0.085ms 
T34F4 000:303.865 JLINK_GetHardwareVersion()
T34F4 000:303.935 - 0.070ms returns 97000
T34F4 000:306.377 JLINK_GetSN()
T34F4 000:306.441 - 0.063ms returns 63728516
T34F4 000:309.324 JLINK_GetOEMString(...)
T34F4 000:314.354 JLINK_TIF_Select(JLINKARM_TIF_SWD)
T34F4 000:315.345 - 0.993ms returns 0x00
T34F4 000:315.405 JLINK_HasError()
T34F4 000:315.459 JLINK_SetSpeed(1000)
T34F4 000:315.671 - 0.213ms 
T34F4 000:315.728 JLINK_GetId()
T34F4 000:319.093   ConfigTargetSettings() start
T34F4 000:319.199    J-Link Script File: Executing ConfigTargetSettings()
T34F4 000:321.732   ConfigTargetSettings() end - Took 80us
T34F4 000:324.438   InitTarget() start
T34F4 000:324.607    J-Link Script File: Executing InitTarget()
T34F4 000:328.188   SWD selected. Executing JTAG -> SWD switching sequence.
T34F4 000:333.815   DAP initialized successfully.
T34F4 000:350.055   InitTarget() end - Took 22.6ms
T34F4 000:354.014   Found SW-DP with ID 0x6BA02477
T34F4 000:360.110   DPIDR: 0x6BA02477
T34F4 000:362.746   CoreSight SoC-400 or earlier
T34F4 000:365.509   Scanning AP map to find all available APs
T34F4 000:369.954   AP[3]: Stopped AP scan as end of AP map has been reached
T34F4 000:372.726   AP[0]: AHB-AP (IDR: 0x84770001, ADDR: 0x00000000)
T34F4 000:375.501   AP[1]: AHB-AP (IDR: 0x84770001, ADDR: 0x01000000)
T34F4 000:378.317   AP[2]: APB-AP (IDR: 0x54770002, ADDR: 0x02000000)
T34F4 000:381.837   Iterating through AP map to find AHB-AP to use
T34F4 000:385.962   AP[0]: Core found
T34F4 000:389.232   AP[0]: AHB-AP ROM base: 0xE00FE000
T34F4 000:392.900   CPUID register: 0x411FC271. Implementer code: 0x41 (ARM)
T34F4 000:396.543   Cache: L1 I/D-cache present
T34F4 000:399.175   Found Cortex-M7 r1p1, Little endian.
T34F4 000:399.906   -- Max. mem block: 0x00010E60
T34F4 000:400.923   CPU_ReadMem(4 bytes @ 0xE000EDF0)
T34F4 000:401.719   CPU_ReadMem(4 bytes @ 0xE0002000)
T34F4 000:405.141   FPUnit: 8 code (BP) slots and 0 literal slots
T34F4 000:405.238   CPU_ReadMem(4 bytes @ 0xE000EDFC)
T34F4 000:405.901   CPU_WriteMem(4 bytes @ 0xE000EDFC)
T34F4 000:406.643   CPU_ReadMem(4 bytes @ 0xE0001000)
T34F4 000:407.372   CPU_WriteMem(4 bytes @ 0xE0001000)
T34F4 000:408.077   CPU_ReadMem(4 bytes @ 0xE000ED88)
T34F4 000:408.892   CPU_WriteMem(4 bytes @ 0xE000ED88)
T34F4 000:409.580   CPU_ReadMem(4 bytes @ 0xE000ED88)
T34F4 000:410.312   CPU_WriteMem(4 bytes @ 0xE000ED88)
T34F4 000:413.858   CoreSight components:
T34F4 000:417.173   ROMTbl[0] @ E00FE000
T34F4 000:417.271   CPU_ReadMem(64 bytes @ 0xE00FE000)
T34F4 000:418.764   CPU_ReadMem(32 bytes @ 0xE00FFFE0)
T34F4 000:422.826   [0][0]: E00FF000 CID B105100D PID 000BB4C7 ROM Table
T34F4 000:426.067   ROMTbl[1] @ E00FF000
T34F4 000:426.281   CPU_ReadMem(64 bytes @ 0xE00FF000)
T34F4 000:427.887   CPU_ReadMem(32 bytes @ 0xE000EFE0)
T34F4 000:431.747   [1][0]: E000E000 CID B105E00D PID 000BB00C SCS-M7
T34F4 000:431.847   CPU_ReadMem(32 bytes @ 0xE0001FE0)
T34F4 000:435.499   [1][1]: E0001000 CID B105E00D PID 000BB002 DWT
T34F4 000:435.602   CPU_ReadMem(32 bytes @ 0xE0002FE0)
T34F4 000:439.282   [1][2]: E0002000 CID B105E00D PID 000BB00E FPB-M7
T34F4 000:439.379   CPU_ReadMem(32 bytes @ 0xE0000FE0)
T34F4 000:444.331   [1][3]: E0000000 CID B105E00D PID 000BB001 ITM
T34F4 000:444.450   CPU_ReadMem(32 bytes @ 0xE0041FE0)
T34F4 000:448.693   [0][1]: E0041000 CID B105900D PID 001BB975 ETM-M7
T34F4 000:448.854   CPU_ReadMem(32 bytes @ 0xE0043FE0)
T34F4 000:452.691   [0][2]: E0043000 CID B105900D PID 004BB906 CTI
T34F4 000:452.828   CPU_WriteMem(4 bytes @ 0xE000ED84)
T34F4 000:453.520   CPU_ReadMem(4 bytes @ 0xE000ED80)
T34F4 000:456.863   I-Cache L1: 16 KB, 256 Sets, 32 Bytes/Line, 2-Way
T34F4 000:456.960   CPU_WriteMem(4 bytes @ 0xE000ED84)
T34F4 000:457.656   CPU_ReadMem(4 bytes @ 0xE000ED80)
T34F4 000:461.430   D-Cache L1: 16 KB, 128 Sets, 32 Bytes/Line, 4-Way
T34F4 000:461.949 - 146.220ms returns 0x6BA02477
T34F4 000:462.016 JLINK_GetDLLVersion()
T34F4 000:462.060 - 0.043ms returns 81600
T34F4 000:462.185 JLINK_CORE_GetFound()
T34F4 000:462.228 - 0.043ms returns 0xE0100FF
T34F4 000:462.272 JLINK_GetDebugInfo(0x100 = JLINKARM_ROM_TABLE_ADDR_INDEX)
T34F4 000:462.317   Value=0xE00FE000
T34F4 000:462.378 - 0.106ms returns 0
T34F4 000:465.048 JLINK_GetDebugInfo(0x100 = JLINKARM_ROM_TABLE_ADDR_INDEX)
T34F4 000:465.117   Value=0xE00FE000
T34F4 000:465.180 - 0.132ms returns 0
T34F4 000:465.225 JLINK_GetDebugInfo(0x101 = JLINKARM_DEBUG_INFO_ETM_ADDR_INDEX)
T34F4 000:465.266   Value=0xE0041000
T34F4 000:465.332 - 0.108ms returns 0
T34F4 000:465.376 JLINK_ReadMemEx(0xE0041FD0, 0x20 Bytes, Flags = 0x02000004)
T34F4 000:465.447   CPU_ReadMem(32 bytes @ 0xE0041FD0)
T34F4 000:466.510   Data:  04 00 00 00 00 00 00 00 00 00 00 00 00 00 00 00 ...
T34F4 000:466.584 - 1.207ms returns 32 (0x20)
T34F4 000:466.630 JLINK_GetDebugInfo(0x102 = JLINKARM_DEBUG_INFO_MTB_ADDR_INDEX)
T34F4 000:466.672   Value=0x00000000
T34F4 000:466.772 - 0.142ms returns 0
T34F4 000:466.816 JLINK_GetDebugInfo(0x103 = JLINKARM_DEBUG_INFO_TPIU_ADDR_INDEX)
T34F4 000:466.858   Value=0xE00F5000
T34F4 000:466.918 - 0.102ms returns 0
T34F4 000:466.961 JLINK_GetDebugInfo(0x104 = JLINKARM_DEBUG_INFO_ITM_ADDR_INDEX)
T34F4 000:467.002   Value=0xE0000000
T34F4 000:467.063 - 0.101ms returns 0
T34F4 000:467.106 JLINK_GetDebugInfo(0x105 = JLINKARM_DEBUG_INFO_DWT_ADDR_INDEX)
T34F4 000:467.146   Value=0xE0001000
T34F4 000:467.207 - 0.101ms returns 0
T34F4 000:467.250 JLINK_GetDebugInfo(0x106 = JLINKARM_DEBUG_INFO_FPB_ADDR_INDEX)
T34F4 000:467.290   Value=0xE0002000
T34F4 000:467.351 - 0.101ms returns 0
T34F4 000:467.394 JLINK_GetDebugInfo(0x107 = JLINKARM_DEBUG_INFO_NVIC_ADDR_INDEX)
T34F4 000:467.434   Value=0xE000E000
T34F4 000:467.495 - 0.101ms returns 0
T34F4 000:467.537 JLINK_GetDebugInfo(0x10C = JLINKARM_DEBUG_INFO_DBG_ADDR_INDEX)
T34F4 000:467.578   Value=0xE000EDF0
T34F4 000:467.638 - 0.101ms returns 0
T34F4 000:467.681 JLINK_GetDebugInfo(0x01 = Unknown)
T34F4 000:467.751   Value=0x00000001
T34F4 000:467.813 - 0.131ms returns 0
T34F4 000:467.856 JLINK_ReadMemU32(0xE000ED00, 0x1 Items)
T34F4 000:467.925   CPU_ReadMem(4 bytes @ 0xE000ED00)
T34F4 000:468.595   Data:  71 C2 1F 41
T34F4 000:468.683   Debug reg: CPUID
T34F4 000:468.782 - 0.925ms returns 1 (0x1)
T34F4 000:468.827 JLINK_GetDebugInfo(0x10F = JLINKARM_DEBUG_INFO_HAS_CORTEX_M_SECURITY_EXT_INDEX)
T34F4 000:468.869   Value=0x00000000
T34F4 000:468.930 - 0.102ms returns 0
T34F4 000:468.973 JLINK_HasError()
T34F4 000:469.018 JLINK_SetResetType(JLINKARM_CM3_RESET_TYPE_NORMAL)
T34F4 000:469.060 - 0.041ms returns JLINKARM_CM3_RESET_TYPE_NORMAL
T34F4 000:469.103 JLINK_Reset()
T34F4 000:469.150   JLINK_GetResetTypeDesc
T34F4 000:469.192   - 0.042ms 
T34F4 000:471.856   Reset type: NORMAL (https://wiki.segger.com/J-Link_Reset_Strategies)
T34F4 000:471.939   CPU is running
T34F4 000:472.006   CPU_WriteMem(4 bytes @ 0xE000EDF0)
T34F4 000:472.701   CPU is running
T34F4 000:472.809   CPU_WriteMem(4 bytes @ 0xE000EDFC)
T34F4 000:476.543   Reset: Halt core after reset via DEMCR.VC_CORERESET.
T34F4 000:480.191   Reset: Reset device via AIRCR.SYSRESETREQ.
T34F4 000:480.304   CPU is running
T34F4 000:480.371   CPU_WriteMem(4 bytes @ 0xE000ED0C)
T34F4 000:534.087   CPU_ReadMem(4 bytes @ 0xE000EDF0)
T34F4 000:534.889   CPU_ReadMem(4 bytes @ 0xE000EDF0)
T34F4 000:542.029   CPU_WriteMem(4 bytes @ 0xE000EDFC)
T34F4 000:548.811   CPU_ReadMem(4 bytes @ 0xE000EDF0)
T34F4 000:555.964   CPU_WriteMem(4 bytes @ 0xE0002000)
T34F4 000:556.755   CPU_ReadMem(4 bytes @ 0xE000EDFC)
T34F4 000:557.394   CPU_ReadMem(4 bytes @ 0xE0001000)
T34F4 000:558.108 - 89.004ms 
T34F4 000:558.173 JLINK_Halt()
T34F4 000:558.217 - 0.043ms returns 0x00
T34F4 000:558.343 JLINK_ReadMemU32(0xE000EDF0, 0x1 Items)
T34F4 000:558.391   CPU_ReadMem(4 bytes @ 0xE000EDF0)
T34F4 000:559.161   Data:  03 00 03 00
T34F4 000:559.336   Debug reg: DHCSR
T34F4 000:559.413 - 1.069ms returns 1 (0x1)
T34F4 000:559.481 JLINK_WriteU32(0xE000EDF0, 0xA05F0003)
T34F4 000:559.536   Debug reg: DHCSR
T34F4 000:560.176   CPU_WriteMem(4 bytes @ 0xE000EDF0)
T34F4 000:560.935 - 1.454ms returns 0 (0x00000000)
T34F4 000:561.040 JLINK_WriteU32(0xE000EDFC, 0x01000000)
T34F4 000:561.085   Debug reg: DEMCR
T34F4 000:561.157   CPU_WriteMem(4 bytes @ 0xE000EDFC)
T34F4 000:561.967 - 0.925ms returns 0 (0x00000000)
T34F4 000:572.927 JLINK_GetHWStatus(...)
T34F4 000:573.438 - 0.509ms returns 0
T34F4 000:581.850 JLINK_GetNumBPUnits(Type = 0xFFFFFF00)
T34F4 000:581.942 - 0.092ms returns 0x08
T34F4 000:581.992 JLINK_GetNumBPUnits(Type = 0xF0)
T34F4 000:582.037 - 0.045ms returns 0x2000
T34F4 000:582.081 JLINK_GetNumWPUnits()
T34F4 000:582.123 - 0.041ms returns 4
T34F4 000:590.666 JLINK_GetSpeed()
T34F4 000:590.795 - 0.128ms returns 1000
T34F4 000:597.113 JLINK_ReadMemU32(0xE000E004, 0x1 Items)
T34F4 000:597.218   CPU_ReadMem(4 bytes @ 0xE000E004)
T34F4 000:597.938   Data:  04 00 00 00
T34F4 000:598.064 - 0.950ms returns 1 (0x1)
T34F4 000:598.113 JLINK_ReadMemU32(0xE000E004, 0x1 Items)
T34F4 000:598.164   CPU_ReadMem(4 bytes @ 0xE000E004)
T34F4 000:598.925   Data:  04 00 00 00
T34F4 000:599.044 - 0.930ms returns 1 (0x1)
T34F4 000:599.093 JLINK_WriteMemEx(0xE0001000, 0x0000001C Bytes, Flags = 0x02000004)
T34F4 000:599.137   Data:  01 00 00 00 00 00 00 00 00 00 00 00 00 00 00 00 ...
T34F4 000:599.209   CPU_WriteMem(28 bytes @ 0xE0001000)
T34F4 000:600.351 - 1.256ms returns 0x1C
T34F4 000:600.459 JLINK_Halt()
T34F4 000:600.504 - 0.044ms returns 0x00
T34F4 000:600.547 JLINK_IsHalted()
T34F4 000:600.590 - 0.042ms returns TRUE
T34F4 000:606.331 JLINK_WriteMem(0x20000000, 0x418 Bytes, ...)
T34F4 000:606.397   Data:  00 BE 0A E0 0D 78 2D 06 68 40 08 24 40 00 00 D3 ...
T34F4 000:607.001   CPU_WriteMem(1048 bytes @ 0x20000000)
T34F4 000:620.984 - 14.652ms returns 0x418
T34F4 000:621.196 JLINK_HasError()
T34F4 000:621.249 JLINK_WriteReg(R0, 0x08000000)
T34F4 000:621.295 - 0.045ms returns 0
T34F4 000:621.339 JLINK_WriteReg(R1, 0x00B71B00)
T34F4 000:621.381 - 0.042ms returns 0
T34F4 000:621.424 JLINK_WriteReg(R2, 0x00000001)
T34F4 000:621.466 - 0.041ms returns 0
T34F4 000:621.509 JLINK_WriteReg(R3, 0x00000000)
T34F4 000:621.551 - 0.041ms returns 0
T34F4 000:621.594 JLINK_WriteReg(R4, 0x00000000)
T34F4 000:621.636 - 0.041ms returns 0
T34F4 000:621.679 JLINK_WriteReg(R5, 0x00000000)
T34F4 000:621.755 - 0.076ms returns 0
T34F4 000:621.801 JLINK_WriteReg(R6, 0x00000000)
T34F4 000:621.843 - 0.041ms returns 0
T34F4 000:621.888 JLINK_WriteReg(R7, 0x00000000)
T34F4 000:621.932 - 0.043ms returns 0
T34F4 000:621.996 JLINK_WriteReg(R8, 0x00000000)
T34F4 000:622.041 - 0.065ms returns 0
T34F4 000:622.085 JLINK_WriteReg(R9, 0x20000414)
T34F4 000:622.127 - 0.041ms returns 0
T34F4 000:622.171 JLINK_WriteReg(R10, 0x00000000)
T34F4 000:622.213 - 0.041ms returns 0
T34F4 000:622.256 JLINK_WriteReg(R11, 0x00000000)
T34F4 000:622.298 - 0.042ms returns 0
T34F4 000:622.341 JLINK_WriteReg(R12, 0x00000000)
T34F4 000:622.384 - 0.042ms returns 0
T34F4 000:622.429 JLINK_WriteReg(R13 (SP), 0x20008000)
T34F4 000:622.472 - 0.043ms returns 0
T34F4 000:622.517 JLINK_WriteReg(R14, 0x20000001)
T34F4 000:622.558 - 0.041ms returns 0
T34F4 000:622.611 JLINK_WriteReg(R15 (PC), 0x2000003E)
T34F4 000:622.655 - 0.050ms returns 0
T34F4 000:622.699 JLINK_WriteReg(XPSR, 0x01000000)
T34F4 000:622.774 - 0.075ms returns 0
T34F4 000:622.819 JLINK_WriteReg(MSP, 0x20008000)
T34F4 000:622.860 - 0.041ms returns 0
T34F4 000:622.904 JLINK_WriteReg(PSP, 0x20008000)
T34F4 000:622.946 - 0.042ms returns 0
T34F4 000:622.990 JLINK_WriteReg(CFBP, 0x00000000)
T34F4 000:623.031 - 0.041ms returns 0
T34F4 000:623.076 JLINK_SetBPEx(Addr = 0x20000000, Type = 0xFFFFFFF2)
T34F4 000:623.120 - 0.043ms returns 0x00000001
T34F4 000:623.164 JLINK_Go()
T34F4 000:623.213   CPU_WriteMem(4 bytes @ 0xE0002000)
T34F4 000:623.897   CPU_ReadMem(4 bytes @ 0xE0001000)
T34F4 000:624.574   CPU_WriteMem(4 bytes @ 0xE0002008)
T34F4 000:624.665   CPU_WriteMem(4 bytes @ 0xE000200C)
T34F4 000:624.730   CPU_WriteMem(4 bytes @ 0xE0002010)
T34F4 000:624.795   CPU_WriteMem(4 bytes @ 0xE0002014)
T34F4 000:624.859   CPU_WriteMem(4 bytes @ 0xE0002018)
T34F4 000:624.922   CPU_WriteMem(4 bytes @ 0xE000201C)
T34F4 000:624.987   CPU_WriteMem(4 bytes @ 0xE0002020)
T34F4 000:625.050   CPU_WriteMem(4 bytes @ 0xE0002024)
T34F4 000:628.273   CPU_WriteMem(4 bytes @ 0xE0001004)
T34F4 000:638.638   Memory map 'after startup completion point' is active
T34F4 000:638.792 - 15.627ms 
T34F4 000:638.842 JLINK_IsHalted()
T34F4 000:645.286 - 6.443ms returns TRUE
T34F4 000:645.377 JLINK_ReadReg(R15 (PC))
T34F4 000:645.427 - 0.049ms returns 0x20000000
T34F4 000:645.471 JLINK_ClrBPEx(BPHandle = 0x00000001)
T34F4 000:645.514 - 0.043ms returns 0x00
T34F4 000:645.558 JLINK_ReadReg(R0)
T34F4 000:645.601 - 0.042ms returns 0x00000000
T34F4 000:646.115 JLINK_HasError()
T34F4 000:646.172 JLINK_WriteReg(R0, 0x08000000)
T34F4 000:646.216 - 0.043ms returns 0
T34F4 000:646.260 JLINK_WriteReg(R1, 0x00020000)
T34F4 000:646.302 - 0.042ms returns 0
T34F4 000:646.345 JLINK_WriteReg(R2, 0x000000FF)
T34F4 000:646.387 - 0.041ms returns 0
T34F4 000:646.430 JLINK_WriteReg(R3, 0x00000000)
T34F4 000:646.472 - 0.041ms returns 0
T34F4 000:646.515 JLINK_WriteReg(R4, 0x00000000)
T34F4 000:646.556 - 0.041ms returns 0
T34F4 000:646.599 JLINK_WriteReg(R5, 0x00000000)
T34F4 000:646.641 - 0.041ms returns 0
T34F4 000:646.684 JLINK_WriteReg(R6, 0x00000000)
T34F4 000:646.760 - 0.075ms returns 0
T34F4 000:646.914 JLINK_WriteReg(R7, 0x00000000)
T34F4 000:646.968 - 0.054ms returns 0
T34F4 000:647.012 JLINK_WriteReg(R8, 0x00000000)
T34F4 000:647.054 - 0.042ms returns 0
T34F4 000:647.098 JLINK_WriteReg(R9, 0x20000414)
T34F4 000:647.139 - 0.041ms returns 0
T34F4 000:647.182 JLINK_WriteReg(R10, 0x00000000)
T34F4 000:647.224 - 0.041ms returns 0
T34F4 000:647.267 JLINK_WriteReg(R11, 0x00000000)
T34F4 000:647.309 - 0.041ms returns 0
T34F4 000:647.352 JLINK_WriteReg(R12, 0x00000000)
T34F4 000:647.393 - 0.041ms returns 0
T34F4 000:647.437 JLINK_WriteReg(R13 (SP), 0x20008000)
T34F4 000:647.480 - 0.043ms returns 0
T34F4 000:647.523 JLINK_WriteReg(R14, 0x20000001)
T34F4 000:647.565 - 0.041ms returns 0
T34F4 000:647.608 JLINK_WriteReg(R15 (PC), 0x20000020)
T34F4 000:647.650 - 0.041ms returns 0
T34F4 000:647.693 JLINK_WriteReg(XPSR, 0x01000000)
T34F4 000:647.771 - 0.078ms returns 0
T34F4 000:647.815 JLINK_WriteReg(MSP, 0x20008000)
T34F4 000:647.857 - 0.041ms returns 0
T34F4 000:647.900 JLINK_WriteReg(PSP, 0x20008000)
T34F4 000:647.942 - 0.041ms returns 0
T34F4 000:647.985 JLINK_WriteReg(CFBP, 0x00000000)
T34F4 000:648.027 - 0.041ms returns 0
T34F4 000:648.071 JLINK_SetBPEx(Addr = 0x20000000, Type = 0xFFFFFFF2)
T34F4 000:648.114 - 0.043ms returns 0x00000002
T34F4 000:648.158 JLINK_Go()
T34F4 000:648.207   CPU_WriteMem(4 bytes @ 0xE0002000)
T34F4 000:648.978   CPU_ReadMem(4 bytes @ 0xE0001000)
T34F4 000:656.060 - 7.901ms 
T34F4 000:656.121 JLINK_IsHalted()
T34F4 000:656.807 - 0.685ms returns FALSE
T34F4 000:656.863 JLINK_HasError()
T34F4 000:681.894 JLINK_IsHalted()
T34F4 000:688.610 - 6.715ms returns TRUE
T34F4 000:688.708 JLINK_ReadReg(R15 (PC))
T34F4 000:688.811 - 0.103ms returns 0x20000000
T34F4 000:688.866 JLINK_ClrBPEx(BPHandle = 0x00000002)
T34F4 000:688.909 - 0.043ms returns 0x00
T34F4 000:688.953 JLINK_ReadReg(R0)
T34F4 000:688.995 - 0.041ms returns 0x00000000
T34F4 000:689.827 JLINK_HasError()
T34F4 000:689.901 JLINK_WriteReg(R0, 0x08100000)
T34F4 000:689.955 - 0.054ms returns 0
T34F4 000:689.999 JLINK_WriteReg(R1, 0x00020000)
T34F4 000:690.041 - 0.042ms returns 0
T34F4 000:690.084 JLINK_WriteReg(R2, 0x000000FF)
T34F4 000:690.126 - 0.041ms returns 0
T34F4 000:690.169 JLINK_WriteReg(R3, 0x00000000)
T34F4 000:690.211 - 0.041ms returns 0
T34F4 000:690.254 JLINK_WriteReg(R4, 0x00000000)
T34F4 000:690.295 - 0.041ms returns 0
T34F4 000:690.339 JLINK_WriteReg(R5, 0x00000000)
T34F4 000:690.380 - 0.041ms returns 0
T34F4 000:690.423 JLINK_WriteReg(R6, 0x00000000)
T34F4 000:690.464 - 0.041ms returns 0
T34F4 000:690.507 JLINK_WriteReg(R7, 0x00000000)
T34F4 000:690.549 - 0.041ms returns 0
T34F4 000:690.592 JLINK_WriteReg(R8, 0x00000000)
T34F4 000:690.633 - 0.041ms returns 0
T34F4 000:690.676 JLINK_WriteReg(R9, 0x20000414)
T34F4 000:690.770 - 0.094ms returns 0
T34F4 000:690.817 JLINK_WriteReg(R10, 0x00000000)
T34F4 000:690.859 - 0.041ms returns 0
T34F4 000:690.902 JLINK_WriteReg(R11, 0x00000000)
T34F4 000:690.943 - 0.041ms returns 0
T34F4 000:690.986 JLINK_WriteReg(R12, 0x00000000)
T34F4 000:691.272 - 0.284ms returns 0
T34F4 000:691.337 JLINK_WriteReg(R13 (SP), 0x20008000)
T34F4 000:691.395 - 0.058ms returns 0
T34F4 000:691.450 JLINK_WriteReg(R14, 0x20000001)
T34F4 000:691.501 - 0.051ms returns 0
T34F4 000:691.571 JLINK_WriteReg(R15 (PC), 0x20000020)
T34F4 000:691.672 - 0.101ms returns 0
T34F4 000:691.766 JLINK_WriteReg(XPSR, 0x01000000)
T34F4 000:691.813 - 0.047ms returns 0
T34F4 000:691.859 JLINK_WriteReg(MSP, 0x20008000)
T34F4 000:691.970 - 0.111ms returns 0
T34F4 000:692.021 JLINK_WriteReg(PSP, 0x20008000)
T34F4 000:692.074 - 0.053ms returns 0
T34F4 000:692.118 JLINK_WriteReg(CFBP, 0x00000000)
T34F4 000:692.162 - 0.043ms returns 0
T34F4 000:692.225 JLINK_SetBPEx(Addr = 0x20000000, Type = 0xFFFFFFF2)
T34F4 000:692.306 - 0.080ms returns 0x00000003
T34F4 000:692.402 JLINK_Go()
T34F4 000:692.575   CPU_WriteMem(4 bytes @ 0xE0002000)
T34F4 000:693.471   CPU_ReadMem(4 bytes @ 0xE0001000)
T34F4 000:700.634 - 8.231ms 
T34F4 000:700.748 JLINK_IsHalted()
T34F4 000:701.444 - 0.695ms returns FALSE
T34F4 000:701.518 JLINK_HasError()
T34F4 000:706.447 JLINK_IsHalted()
T34F4 000:707.388 - 0.940ms returns FALSE
T34F4 000:707.525 JLINK_HasError()
T34F4 000:709.465 JLINK_IsHalted()
T34F4 000:710.273 - 0.806ms returns FALSE
T34F4 000:710.444 JLINK_HasError()
T34F4 000:713.360 JLINK_IsHalted()
T34F4 000:714.084 - 0.707ms returns FALSE
T34F4 000:714.149 JLINK_HasError()
T34F4 000:715.351 JLINK_IsHalted()
T34F4 000:716.069 - 0.717ms returns FALSE
T34F4 000:716.125 JLINK_HasError()
T34F4 000:719.327 JLINK_IsHalted()
T34F4 000:725.803 - 6.475ms returns TRUE
T34F4 000:725.935 JLINK_ReadReg(R15 (PC))
T34F4 000:725.980 - 0.044ms returns 0x20000000
T34F4 000:726.025 JLINK_ClrBPEx(BPHandle = 0x00000003)
T34F4 000:726.068 - 0.043ms returns 0x00
T34F4 000:726.172 JLINK_ReadReg(R0)
T34F4 000:726.216 - 0.043ms returns 0x00000000
T34F4 000:726.734 JLINK_HasError()
T34F4 000:726.792 JLINK_WriteReg(R0, 0x00000001)
T34F4 000:726.835 - 0.043ms returns 0
T34F4 000:726.879 JLINK_WriteReg(R1, 0x00020000)
T34F4 000:726.921 - 0.042ms returns 0
T34F4 000:726.964 JLINK_WriteReg(R2, 0x000000FF)
T34F4 000:727.006 - 0.041ms returns 0
T34F4 000:727.049 JLINK_WriteReg(R3, 0x00000000)
T34F4 000:727.090 - 0.041ms returns 0
T34F4 000:727.133 JLINK_WriteReg(R4, 0x00000000)
T34F4 000:727.174 - 0.041ms returns 0
T34F4 000:727.217 JLINK_WriteReg(R5, 0x00000000)
T34F4 000:727.258 - 0.041ms returns 0
T34F4 000:727.338 JLINK_WriteReg(R6, 0x00000000)
T34F4 000:727.380 - 0.042ms returns 0
T34F4 000:727.536 JLINK_WriteReg(R7, 0x00000000)
T34F4 000:727.590 - 0.054ms returns 0
T34F4 000:727.634 JLINK_WriteReg(R8, 0x00000000)
T34F4 000:727.676 - 0.041ms returns 0
T34F4 000:727.719 JLINK_WriteReg(R9, 0x20000414)
T34F4 000:727.761 - 0.041ms returns 0
T34F4 000:727.804 JLINK_WriteReg(R10, 0x00000000)
T34F4 000:727.845 - 0.041ms returns 0
T34F4 000:727.888 JLINK_WriteReg(R11, 0x00000000)
T34F4 000:727.930 - 0.041ms returns 0
T34F4 000:727.973 JLINK_WriteReg(R12, 0x00000000)
T34F4 000:728.014 - 0.041ms returns 0
T34F4 000:728.058 JLINK_WriteReg(R13 (SP), 0x20008000)
T34F4 000:728.100 - 0.042ms returns 0
T34F4 000:728.143 JLINK_WriteReg(R14, 0x20000001)
T34F4 000:728.184 - 0.041ms returns 0
T34F4 000:728.228 JLINK_WriteReg(R15 (PC), 0x2000009C)
T34F4 000:728.269 - 0.041ms returns 0
T34F4 000:728.351 JLINK_WriteReg(XPSR, 0x01000000)
T34F4 000:728.393 - 0.042ms returns 0
T34F4 000:728.436 JLINK_WriteReg(MSP, 0x20008000)
T34F4 000:728.477 - 0.041ms returns 0
T34F4 000:728.521 JLINK_WriteReg(PSP, 0x20008000)
T34F4 000:728.562 - 0.041ms returns 0
T34F4 000:728.605 JLINK_WriteReg(CFBP, 0x00000000)
T34F4 000:728.646 - 0.041ms returns 0
T34F4 000:728.690 JLINK_SetBPEx(Addr = 0x20000000, Type = 0xFFFFFFF2)
T34F4 000:728.733 - 0.043ms returns 0x00000004
T34F4 000:728.777 JLINK_Go()
T34F4 000:728.825   CPU_WriteMem(4 bytes @ 0xE0002000)
T34F4 000:729.457   CPU_ReadMem(4 bytes @ 0xE0001000)
T34F4 000:736.383 - 7.605ms 
T34F4 000:736.458 JLINK_IsHalted()
T34F4 000:743.021 - 6.561ms returns TRUE
T34F4 000:743.105 JLINK_ReadReg(R15 (PC))
T34F4 000:743.152 - 0.046ms returns 0x20000000
T34F4 000:743.203 JLINK_ClrBPEx(BPHandle = 0x00000004)
T34F4 000:743.247 - 0.043ms returns 0x00
T34F4 000:743.324 JLINK_ReadReg(R0)
T34F4 000:743.368 - 0.043ms returns 0x00000000
T34F4 000:803.972 JLINK_WriteMem(0x20000000, 0x418 Bytes, ...)
T34F4 000:804.040   Data:  00 BE 0A E0 0D 78 2D 06 68 40 08 24 40 00 00 D3 ...
T34F4 000:804.141   CPU_WriteMem(1048 bytes @ 0x20000000)
T34F4 000:818.187 - 14.215ms returns 0x418
T34F4 000:818.491 JLINK_HasError()
T34F4 000:818.561 JLINK_WriteReg(R0, 0x08000000)
T34F4 000:818.609 - 0.048ms returns 0
T34F4 000:818.653 JLINK_WriteReg(R1, 0x00B71B00)
T34F4 000:818.695 - 0.042ms returns 0
T34F4 000:818.739 JLINK_WriteReg(R2, 0x00000002)
T34F4 000:818.780 - 0.041ms returns 0
T34F4 000:818.824 JLINK_WriteReg(R3, 0x00000000)
T34F4 000:818.865 - 0.041ms returns 0
T34F4 000:818.908 JLINK_WriteReg(R4, 0x00000000)
T34F4 000:818.949 - 0.041ms returns 0
T34F4 000:818.992 JLINK_WriteReg(R5, 0x00000000)
T34F4 000:819.033 - 0.041ms returns 0
T34F4 000:819.076 JLINK_WriteReg(R6, 0x00000000)
T34F4 000:819.118 - 0.041ms returns 0
T34F4 000:819.160 JLINK_WriteReg(R7, 0x00000000)
T34F4 000:819.201 - 0.041ms returns 0
T34F4 000:819.244 JLINK_WriteReg(R8, 0x00000000)
T34F4 000:819.329 - 0.084ms returns 0
T34F4 000:819.374 JLINK_WriteReg(R9, 0x20000414)
T34F4 000:819.416 - 0.041ms returns 0
T34F4 000:819.459 JLINK_WriteReg(R10, 0x00000000)
T34F4 000:819.501 - 0.041ms returns 0
T34F4 000:819.544 JLINK_WriteReg(R11, 0x00000000)
T34F4 000:819.585 - 0.041ms returns 0
T34F4 000:819.628 JLINK_WriteReg(R12, 0x00000000)
T34F4 000:819.670 - 0.041ms returns 0
T34F4 000:819.713 JLINK_WriteReg(R13 (SP), 0x20008000)
T34F4 000:819.755 - 0.042ms returns 0
T34F4 000:819.798 JLINK_WriteReg(R14, 0x20000001)
T34F4 000:819.839 - 0.041ms returns 0
T34F4 000:819.882 JLINK_WriteReg(R15 (PC), 0x2000003E)
T34F4 000:819.924 - 0.041ms returns 0
T34F4 000:819.968 JLINK_WriteReg(XPSR, 0x01000000)
T34F4 000:820.009 - 0.041ms returns 0
T34F4 000:820.052 JLINK_WriteReg(MSP, 0x20008000)
T34F4 000:820.093 - 0.041ms returns 0
T34F4 000:820.136 JLINK_WriteReg(PSP, 0x20008000)
T34F4 000:820.178 - 0.041ms returns 0
T34F4 000:820.221 JLINK_WriteReg(CFBP, 0x00000000)
T34F4 000:820.262 - 0.041ms returns 0
T34F4 000:820.340 JLINK_SetBPEx(Addr = 0x20000000, Type = 0xFFFFFFF2)
T34F4 000:820.384 - 0.044ms returns 0x00000005
T34F4 000:820.427 JLINK_Go()
T34F4 000:820.475   CPU_WriteMem(4 bytes @ 0xE0002000)
T34F4 000:821.255   CPU_ReadMem(4 bytes @ 0xE0001000)
T34F4 000:828.597 - 8.168ms 
T34F4 000:828.723 JLINK_IsHalted()
T34F4 000:835.516 - 6.791ms returns TRUE
T34F4 000:835.617 JLINK_ReadReg(R15 (PC))
T34F4 000:835.664 - 0.047ms returns 0x20000000
T34F4 000:835.805 JLINK_ClrBPEx(BPHandle = 0x00000005)
T34F4 000:835.872 - 0.067ms returns 0x00
T34F4 000:835.957 JLINK_ReadReg(R0)
T34F4 000:836.009 - 0.051ms returns 0x00000000
T34F4 000:836.865 JLINK_WriteMem(0x20000418, 0x3E8 Bytes, ...)
T34F4 000:836.956   Data:  88 10 00 24 01 00 10 08 F9 0E 10 08 F5 0E 10 08 ...
T34F4 000:837.035   CPU_WriteMem(1000 bytes @ 0x20000418)
T34F4 000:850.561 - 13.694ms returns 0x3E8
T34F4 000:850.715 JLINK_WriteMem(0x20000800, 0x18 Bytes, ...)
T34F4 000:850.763   Data:  60 65 2C 48 A0 65 2C 48 E0 65 2C 48 20 66 2C 48 ...
T34F4 000:850.845   CPU_WriteMem(24 bytes @ 0x20000800)
T34F4 000:852.003 - 1.287ms returns 0x18
T34F4 000:852.108 JLINK_HasError()
T34F4 000:852.156 JLINK_WriteReg(R0, 0x08000000)
T34F4 000:852.203 - 0.047ms returns 0
T34F4 000:852.248 JLINK_WriteReg(R1, 0x00000400)
T34F4 000:852.340 - 0.091ms returns 0
T34F4 000:852.389 JLINK_WriteReg(R2, 0x20000418)
T34F4 000:852.432 - 0.042ms returns 0
T34F4 000:852.477 JLINK_WriteReg(R3, 0x00000000)
T34F4 000:852.518 - 0.041ms returns 0
T34F4 000:852.562 JLINK_WriteReg(R4, 0x00000000)
T34F4 000:852.603 - 0.041ms returns 0
T34F4 000:852.646 JLINK_WriteReg(R5, 0x00000000)
T34F4 000:852.688 - 0.041ms returns 0
T34F4 000:852.731 JLINK_WriteReg(R6, 0x00000000)
T34F4 000:852.772 - 0.041ms returns 0
T34F4 000:852.815 JLINK_WriteReg(R7, 0x00000000)
T34F4 000:852.863 - 0.047ms returns 0
T34F4 000:852.907 JLINK_WriteReg(R8, 0x00000000)
T34F4 000:852.948 - 0.041ms returns 0
T34F4 000:852.991 JLINK_WriteReg(R9, 0x20000414)
T34F4 000:853.032 - 0.041ms returns 0
T34F4 000:853.075 JLINK_WriteReg(R10, 0x00000000)
T34F4 000:853.117 - 0.041ms returns 0
T34F4 000:853.160 JLINK_WriteReg(R11, 0x00000000)
T34F4 000:853.201 - 0.041ms returns 0
T34F4 000:853.244 JLINK_WriteReg(R12, 0x00000000)
T34F4 000:853.326 - 0.081ms returns 0
T34F4 000:853.371 JLINK_WriteReg(R13 (SP), 0x20008000)
T34F4 000:853.414 - 0.042ms returns 0
T34F4 000:853.459 JLINK_WriteReg(R14, 0x20000001)
T34F4 000:853.501 - 0.041ms returns 0
T34F4 000:853.544 JLINK_WriteReg(R15 (PC), 0x2000029A)
T34F4 000:853.586 - 0.042ms returns 0
T34F4 000:853.629 JLINK_WriteReg(XPSR, 0x01000000)
T34F4 000:853.671 - 0.041ms returns 0
T34F4 000:853.714 JLINK_WriteReg(MSP, 0x20008000)
T34F4 000:853.755 - 0.041ms returns 0
T34F4 000:853.798 JLINK_WriteReg(PSP, 0x20008000)
T34F4 000:853.840 - 0.041ms returns 0
T34F4 000:853.883 JLINK_WriteReg(CFBP, 0x00000000)
T34F4 000:853.924 - 0.041ms returns 0
T34F4 000:853.968 JLINK_SetBPEx(Addr = 0x20000000, Type = 0xFFFFFFF2)
T34F4 000:854.012 - 0.044ms returns 0x00000006
T34F4 000:854.056 JLINK_Go()
T34F4 000:854.134   CPU_WriteMem(4 bytes @ 0xE0002000)
T34F4 000:855.116   CPU_ReadMem(4 bytes @ 0xE0001000)
T34F4 000:862.592 - 8.534ms 
T34F4 000:862.726 JLINK_IsHalted()
T34F4 000:863.462 - 0.734ms returns FALSE
T34F4 000:863.589 JLINK_HasError()
T34F4 000:866.363 JLINK_IsHalted()
T34F4 000:867.275 - 0.912ms returns FALSE
T34F4 000:867.411 JLINK_HasError()
T34F4 000:869.550 JLINK_IsHalted()
T34F4 000:870.597 - 1.046ms returns FALSE
T34F4 000:870.698 JLINK_HasError()
T34F4 000:872.546 JLINK_IsHalted()
T34F4 000:879.233 - 6.685ms returns TRUE
T34F4 000:879.381 JLINK_ReadReg(R15 (PC))
T34F4 000:879.431 - 0.050ms returns 0x20000000
T34F4 000:879.477 JLINK_ClrBPEx(BPHandle = 0x00000006)
T34F4 000:879.522 - 0.044ms returns 0x00
T34F4 000:879.567 JLINK_ReadReg(R0)
T34F4 000:879.611 - 0.043ms returns 0x00000000
T34F4 000:880.431 JLINK_WriteMem(0x20000418, 0x3E8 Bytes, ...)
T34F4 000:880.502   Data:  08 B9 2B 48 E0 66 20 46 E1 6E 88 47 41 F2 88 31 ...
T34F4 000:880.580   CPU_WriteMem(1000 bytes @ 0x20000418)
T34F4 000:894.136 - 13.704ms returns 0x3E8
T34F4 000:894.327 JLINK_WriteMem(0x20000800, 0x18 Bytes, ...)
T34F4 000:894.374   Data:  08 28 11 D1 31 49 09 1D 60 69 09 68 01 F0 70 01 ...
T34F4 000:894.448   CPU_WriteMem(24 bytes @ 0x20000800)
T34F4 000:895.456 - 1.128ms returns 0x18
T34F4 000:895.543 JLINK_HasError()
T34F4 000:895.842 JLINK_WriteReg(R0, 0x08000400)
T34F4 000:895.911 - 0.075ms returns 0
T34F4 000:895.958 JLINK_WriteReg(R1, 0x00000400)
T34F4 000:896.001 - 0.042ms returns 0
T34F4 000:896.045 JLINK_WriteReg(R2, 0x20000418)
T34F4 000:896.087 - 0.042ms returns 0
T34F4 000:896.131 JLINK_WriteReg(R3, 0x00000000)
T34F4 000:896.173 - 0.041ms returns 0
T34F4 000:896.217 JLINK_WriteReg(R4, 0x00000000)
T34F4 000:896.259 - 0.041ms returns 0
T34F4 000:896.304 JLINK_WriteReg(R5, 0x00000000)
T34F4 000:896.346 - 0.042ms returns 0
T34F4 000:896.390 JLINK_WriteReg(R6, 0x00000000)
T34F4 000:896.431 - 0.041ms returns 0
T34F4 000:896.474 JLINK_WriteReg(R7, 0x00000000)
T34F4 000:896.516 - 0.041ms returns 0
T34F4 000:896.563 JLINK_WriteReg(R8, 0x00000000)
T34F4 000:896.606 - 0.042ms returns 0
T34F4 000:896.655 JLINK_WriteReg(R9, 0x20000414)
T34F4 000:896.698 - 0.042ms returns 0
T34F4 000:896.741 JLINK_WriteReg(R10, 0x00000000)
T34F4 000:896.783 - 0.042ms returns 0
T34F4 000:896.828 JLINK_WriteReg(R11, 0x00000000)
T34F4 000:896.871 - 0.042ms returns 0
T34F4 000:896.914 JLINK_WriteReg(R12, 0x00000000)
T34F4 000:896.956 - 0.041ms returns 0
T34F4 000:897.000 JLINK_WriteReg(R13 (SP), 0x20008000)
T34F4 000:897.044 - 0.044ms returns 0
T34F4 000:897.089 JLINK_WriteReg(R14, 0x20000001)
T34F4 000:897.131 - 0.042ms returns 0
T34F4 000:897.175 JLINK_WriteReg(R15 (PC), 0x2000029A)
T34F4 000:897.217 - 0.042ms returns 0
T34F4 000:897.274 JLINK_WriteReg(XPSR, 0x01000000)
T34F4 000:897.362 - 0.088ms returns 0
T34F4 000:897.424 JLINK_WriteReg(MSP, 0x20008000)
T34F4 000:897.473 - 0.049ms returns 0
T34F4 000:897.525 JLINK_WriteReg(PSP, 0x20008000)
T34F4 000:897.570 - 0.044ms returns 0
T34F4 000:897.616 JLINK_WriteReg(CFBP, 0x00000000)
T34F4 000:897.661 - 0.044ms returns 0
T34F4 000:897.708 JLINK_SetBPEx(Addr = 0x20000000, Type = 0xFFFFFFF2)
T34F4 000:897.756 - 0.048ms returns 0x00000007
T34F4 000:897.803 JLINK_Go()
T34F4 000:897.857   CPU_WriteMem(4 bytes @ 0xE0002000)
T34F4 000:898.572   CPU_ReadMem(4 bytes @ 0xE0001000)
T34F4 000:906.098 - 8.294ms 
T34F4 000:906.207 JLINK_IsHalted()
T34F4 000:907.083 - 0.875ms returns FALSE
T34F4 000:907.189 JLINK_HasError()
T34F4 000:915.393 JLINK_IsHalted()
T34F4 000:922.142 - 6.749ms returns TRUE
T34F4 000:922.244 JLINK_ReadReg(R15 (PC))
T34F4 000:922.348 - 0.102ms returns 0x20000000
T34F4 000:922.404 JLINK_ClrBPEx(BPHandle = 0x00000007)
T34F4 000:922.455 - 0.050ms returns 0x00
T34F4 000:922.502 JLINK_ReadReg(R0)
T34F4 000:922.546 - 0.043ms returns 0x00000000
T34F4 000:923.225 JLINK_WriteMem(0x20000418, 0x3E8 Bytes, ...)
T34F4 000:923.344   Data:  00 68 20 F0 70 00 61 69 08 43 2A 49 09 1D 08 60 ...
T34F4 000:923.419   CPU_WriteMem(1000 bytes @ 0x20000418)
T34F4 000:936.664 - 13.438ms returns 0x3E8
T34F4 000:936.766 JLINK_WriteMem(0x20000800, 0x18 Bytes, ...)
T34F4 000:936.811   Data:  00 F0 01 00 00 90 4A 48 0C 30 00 68 40 F4 40 40 ...
T34F4 000:936.883   CPU_WriteMem(24 bytes @ 0x20000800)
T34F4 000:938.103 - 1.335ms returns 0x18
T34F4 000:938.207 JLINK_HasError()
T34F4 000:938.255 JLINK_WriteReg(R0, 0x08000800)
T34F4 000:938.369 - 0.113ms returns 0
T34F4 000:938.423 JLINK_WriteReg(R1, 0x00000400)
T34F4 000:938.471 - 0.048ms returns 0
T34F4 000:938.516 JLINK_WriteReg(R2, 0x20000418)
T34F4 000:938.558 - 0.042ms returns 0
T34F4 000:938.601 JLINK_WriteReg(R3, 0x00000000)
T34F4 000:938.642 - 0.041ms returns 0
T34F4 000:938.686 JLINK_WriteReg(R4, 0x00000000)
T34F4 000:938.727 - 0.041ms returns 0
T34F4 000:938.770 JLINK_WriteReg(R5, 0x00000000)
T34F4 000:938.811 - 0.041ms returns 0
T34F4 000:938.854 JLINK_WriteReg(R6, 0x00000000)
T34F4 000:938.896 - 0.041ms returns 0
T34F4 000:938.938 JLINK_WriteReg(R7, 0x00000000)
T34F4 000:938.980 - 0.041ms returns 0
T34F4 000:939.023 JLINK_WriteReg(R8, 0x00000000)
T34F4 000:939.064 - 0.041ms returns 0
T34F4 000:939.107 JLINK_WriteReg(R9, 0x20000414)
T34F4 000:939.149 - 0.041ms returns 0
T34F4 000:939.192 JLINK_WriteReg(R10, 0x00000000)
T34F4 000:939.233 - 0.041ms returns 0
T34F4 000:939.276 JLINK_WriteReg(R11, 0x00000000)
T34F4 000:939.348 - 0.072ms returns 0
T34F4 000:939.392 JLINK_WriteReg(R12, 0x00000000)
T34F4 000:939.433 - 0.041ms returns 0
T34F4 000:939.476 JLINK_WriteReg(R13 (SP), 0x20008000)
T34F4 000:939.519 - 0.042ms returns 0
T34F4 000:939.562 JLINK_WriteReg(R14, 0x20000001)
T34F4 000:939.603 - 0.041ms returns 0
T34F4 000:939.647 JLINK_WriteReg(R15 (PC), 0x2000029A)
T34F4 000:939.688 - 0.041ms returns 0
T34F4 000:939.732 JLINK_WriteReg(XPSR, 0x01000000)
T34F4 000:939.773 - 0.041ms returns 0
T34F4 000:939.816 JLINK_WriteReg(MSP, 0x20008000)
T34F4 000:939.858 - 0.041ms returns 0
T34F4 000:939.964 JLINK_WriteReg(PSP, 0x20008000)
T34F4 000:940.010 - 0.046ms returns 0
T34F4 000:940.054 JLINK_WriteReg(CFBP, 0x00000000)
T34F4 000:940.095 - 0.041ms returns 0
T34F4 000:940.139 JLINK_SetBPEx(Addr = 0x20000000, Type = 0xFFFFFFF2)
T34F4 000:940.184 - 0.044ms returns 0x00000008
T34F4 000:940.228 JLINK_Go()
T34F4 000:940.276   CPU_WriteMem(4 bytes @ 0xE0002000)
T34F4 000:940.977   CPU_ReadMem(4 bytes @ 0xE0001000)
T34F4 000:948.253 - 8.023ms 
T34F4 000:948.496 JLINK_IsHalted()
T34F4 000:949.327 - 0.831ms returns FALSE
T34F4 000:949.431 JLINK_HasError()
T34F4 000:952.522 JLINK_IsHalted()
T34F4 000:953.539 - 1.016ms returns FALSE
T34F4 000:953.668 JLINK_HasError()
T34F4 000:955.404 JLINK_IsHalted()
T34F4 000:956.172 - 0.767ms returns FALSE
T34F4 000:956.286 JLINK_HasError()
T34F4 000:958.332 JLINK_IsHalted()
T34F4 000:964.818 - 6.485ms returns TRUE
T34F4 000:964.918 JLINK_ReadReg(R15 (PC))
T34F4 000:964.979 - 0.060ms returns 0x20000000
T34F4 000:965.026 JLINK_ClrBPEx(BPHandle = 0x00000008)
T34F4 000:965.072 - 0.046ms returns 0x00
T34F4 000:965.119 JLINK_ReadReg(R0)
T34F4 000:965.164 - 0.045ms returns 0x00000000
T34F4 000:966.040 JLINK_WriteMem(0x20000418, 0x3E8 Bytes, ...)
T34F4 000:966.135   Data:  00 68 00 F4 40 40 00 90 00 BF 00 BF 00 BF 42 48 ...
T34F4 000:966.214   CPU_WriteMem(1000 bytes @ 0x20000418)
T34F4 000:979.610 - 13.570ms returns 0x3E8
T34F4 000:979.728 JLINK_WriteMem(0x20000800, 0x18 Bytes, ...)
T34F4 000:979.774   Data:  05 90 4F F4 00 50 06 90 00 20 07 90 02 20 08 90 ...
T34F4 000:980.089   CPU_WriteMem(24 bytes @ 0x20000800)
T34F4 000:981.190 - 1.460ms returns 0x18
T34F4 000:981.321 JLINK_HasError()
T34F4 000:981.469 JLINK_WriteReg(R0, 0x08000C00)
T34F4 000:981.533 - 0.064ms returns 0
T34F4 000:981.581 JLINK_WriteReg(R1, 0x00000400)
T34F4 000:981.627 - 0.046ms returns 0
T34F4 000:981.676 JLINK_WriteReg(R2, 0x20000418)
T34F4 000:981.722 - 0.045ms returns 0
T34F4 000:981.769 JLINK_WriteReg(R3, 0x00000000)
T34F4 000:981.814 - 0.045ms returns 0
T34F4 000:981.925 JLINK_WriteReg(R4, 0x00000000)
T34F4 000:981.972 - 0.047ms returns 0
T34F4 000:982.018 JLINK_WriteReg(R5, 0x00000000)
T34F4 000:982.065 - 0.046ms returns 0
T34F4 000:982.117 JLINK_WriteReg(R6, 0x00000000)
T34F4 000:982.160 - 0.043ms returns 0
T34F4 000:982.207 JLINK_WriteReg(R7, 0x00000000)
T34F4 000:982.251 - 0.044ms returns 0
T34F4 000:982.297 JLINK_WriteReg(R8, 0x00000000)
T34F4 000:982.342 - 0.045ms returns 0
T34F4 000:982.388 JLINK_WriteReg(R9, 0x20000414)
T34F4 000:982.432 - 0.043ms returns 0
T34F4 000:982.482 JLINK_WriteReg(R10, 0x00000000)
T34F4 000:982.526 - 0.043ms returns 0
T34F4 000:982.572 JLINK_WriteReg(R11, 0x00000000)
T34F4 000:982.615 - 0.043ms returns 0
T34F4 000:982.660 JLINK_WriteReg(R12, 0x00000000)
T34F4 000:982.703 - 0.042ms returns 0
T34F4 000:982.747 JLINK_WriteReg(R13 (SP), 0x20008000)
T34F4 000:982.792 - 0.045ms returns 0
T34F4 000:982.837 JLINK_WriteReg(R14, 0x20000001)
T34F4 000:982.943 - 0.105ms returns 0
T34F4 000:982.988 JLINK_WriteReg(R15 (PC), 0x2000029A)
T34F4 000:983.030 - 0.042ms returns 0
T34F4 000:983.074 JLINK_WriteReg(XPSR, 0x01000000)
T34F4 000:983.117 - 0.042ms returns 0
T34F4 000:983.160 JLINK_WriteReg(MSP, 0x20008000)
T34F4 000:983.202 - 0.041ms returns 0
T34F4 000:983.248 JLINK_WriteReg(PSP, 0x20008000)
T34F4 000:983.290 - 0.042ms returns 0
T34F4 000:983.339 JLINK_WriteReg(CFBP, 0x00000000)
T34F4 000:983.383 - 0.044ms returns 0
T34F4 000:983.429 JLINK_SetBPEx(Addr = 0x20000000, Type = 0xFFFFFFF2)
T34F4 000:983.481 - 0.052ms returns 0x00000009
T34F4 000:983.526 JLINK_Go()
T34F4 000:983.594   CPU_WriteMem(4 bytes @ 0xE0002000)
T34F4 000:984.339   CPU_ReadMem(4 bytes @ 0xE0001000)
T34F4 000:991.360 - 7.831ms 
T34F4 000:991.476 JLINK_IsHalted()
T34F4 000:992.265 - 0.789ms returns FALSE
T34F4 000:992.338 JLINK_HasError()
T34F4 000:994.181 JLINK_IsHalted()
T34F4 000:995.325 - 1.143ms returns FALSE
T34F4 000:995.430 JLINK_HasError()
T34F4 000:996.998 JLINK_IsHalted()
T34F4 000:998.024 - 1.024ms returns FALSE
T34F4 000:998.147 JLINK_HasError()
T34F4 001:000.138 JLINK_IsHalted()
T34F4 001:006.756 - 6.618ms returns TRUE
T34F4 001:006.852 JLINK_ReadReg(R15 (PC))
T34F4 001:006.923 - 0.070ms returns 0x20000000
T34F4 001:006.971 JLINK_ClrBPEx(BPHandle = 0x00000009)
T34F4 001:007.014 - 0.043ms returns 0x00
T34F4 001:007.135 JLINK_ReadReg(R0)
T34F4 001:007.179 - 0.043ms returns 0x00000000
T34F4 001:008.264 JLINK_WriteMem(0x20000418, 0x3E8 Bytes, ...)
T34F4 001:008.351   Data:  0A 90 00 20 0B 90 4F F0 40 70 0C 90 00 20 0E 90 ...
T34F4 001:008.432   CPU_WriteMem(1000 bytes @ 0x20000418)
T34F4 001:021.719 - 13.454ms returns 0x3E8
T34F4 001:021.819 JLINK_WriteMem(0x20000800, 0x18 Bytes, ...)
T34F4 001:021.863   Data:  FF FF FF FF FF FF FF FF FF FF FF FF FF FF FF FF ...
T34F4 001:021.939   CPU_WriteMem(24 bytes @ 0x20000800)
T34F4 001:023.149 - 1.328ms returns 0x18
T34F4 001:023.292 JLINK_HasError()
T34F4 001:023.341 JLINK_WriteReg(R0, 0x08001000)
T34F4 001:023.387 - 0.046ms returns 0
T34F4 001:023.432 JLINK_WriteReg(R1, 0x00000324)
T34F4 001:023.474 - 0.042ms returns 0
T34F4 001:023.518 JLINK_WriteReg(R2, 0x20000418)
T34F4 001:023.560 - 0.041ms returns 0
T34F4 001:023.603 JLINK_WriteReg(R3, 0x00000000)
T34F4 001:023.644 - 0.041ms returns 0
T34F4 001:023.687 JLINK_WriteReg(R4, 0x00000000)
T34F4 001:023.729 - 0.041ms returns 0
T34F4 001:023.772 JLINK_WriteReg(R5, 0x00000000)
T34F4 001:023.813 - 0.041ms returns 0
T34F4 001:023.889 JLINK_WriteReg(R6, 0x00000000)
T34F4 001:023.937 - 0.048ms returns 0
T34F4 001:023.985 JLINK_WriteReg(R7, 0x00000000)
T34F4 001:024.027 - 0.042ms returns 0
T34F4 001:024.071 JLINK_WriteReg(R8, 0x00000000)
T34F4 001:024.112 - 0.041ms returns 0
T34F4 001:024.155 JLINK_WriteReg(R9, 0x20000414)
T34F4 001:024.197 - 0.041ms returns 0
T34F4 001:024.240 JLINK_WriteReg(R10, 0x00000000)
T34F4 001:024.282 - 0.041ms returns 0
T34F4 001:024.325 JLINK_WriteReg(R11, 0x00000000)
T34F4 001:024.440 - 0.114ms returns 0
T34F4 001:024.484 JLINK_WriteReg(R12, 0x00000000)
T34F4 001:024.525 - 0.041ms returns 0
T34F4 001:024.571 JLINK_WriteReg(R13 (SP), 0x20008000)
T34F4 001:024.614 - 0.042ms returns 0
T34F4 001:024.657 JLINK_WriteReg(R14, 0x20000001)
T34F4 001:024.699 - 0.041ms returns 0
T34F4 001:024.743 JLINK_WriteReg(R15 (PC), 0x2000029A)
T34F4 001:024.812 - 0.069ms returns 0
T34F4 001:024.900 JLINK_WriteReg(XPSR, 0x01000000)
T34F4 001:024.945 - 0.044ms returns 0
T34F4 001:024.989 JLINK_WriteReg(MSP, 0x20008000)
T34F4 001:025.033 - 0.044ms returns 0
T34F4 001:025.076 JLINK_WriteReg(PSP, 0x20008000)
T34F4 001:025.118 - 0.041ms returns 0
T34F4 001:025.162 JLINK_WriteReg(CFBP, 0x00000000)
T34F4 001:025.212 - 0.050ms returns 0
T34F4 001:025.257 JLINK_SetBPEx(Addr = 0x20000000, Type = 0xFFFFFFF2)
T34F4 001:025.371 - 0.115ms returns 0x0000000A
T34F4 001:025.416 JLINK_Go()
T34F4 001:025.464   CPU_WriteMem(4 bytes @ 0xE0002000)
T34F4 001:026.355   CPU_ReadMem(4 bytes @ 0xE0001000)
T34F4 001:033.698 - 8.281ms 
T34F4 001:033.808 JLINK_IsHalted()
T34F4 001:034.659 - 0.850ms returns FALSE
T34F4 001:034.768 JLINK_HasError()
T34F4 001:039.159 JLINK_IsHalted()
T34F4 001:040.083 - 0.923ms returns FALSE
T34F4 001:040.191 JLINK_HasError()
T34F4 001:041.953 JLINK_IsHalted()
T34F4 001:048.713 - 6.759ms returns TRUE
T34F4 001:048.831 JLINK_ReadReg(R15 (PC))
T34F4 001:048.884 - 0.052ms returns 0x20000000
T34F4 001:048.934 JLINK_ClrBPEx(BPHandle = 0x0000000A)
T34F4 001:048.987 - 0.052ms returns 0x00
T34F4 001:049.034 JLINK_ReadReg(R0)
T34F4 001:049.077 - 0.043ms returns 0x00000000
T34F4 001:049.524 JLINK_WriteMem(0x20000418, 0x3E8 Bytes, ...)
T34F4 001:049.582   Data:  07 48 80 47 07 48 80 47 07 48 00 47 FE E7 FE E7 ...
T34F4 001:049.654   CPU_WriteMem(1000 bytes @ 0x20000418)
T34F4 001:063.019 - 13.493ms returns 0x3E8
T34F4 001:063.159 JLINK_WriteMem(0x20000800, 0x18 Bytes, ...)
T34F4 001:063.205   Data:  E0 E7 00 00 08 00 00 24 0C 00 00 24 04 00 00 24 ...
T34F4 001:063.279   CPU_WriteMem(24 bytes @ 0x20000800)
T34F4 001:064.219 - 1.059ms returns 0x18
T34F4 001:064.301 JLINK_HasError()
T34F4 001:064.487 JLINK_WriteReg(R0, 0x08100000)
T34F4 001:064.554 - 0.067ms returns 0
T34F4 001:064.601 JLINK_WriteReg(R1, 0x00000400)
T34F4 001:064.644 - 0.043ms returns 0
T34F4 001:064.688 JLINK_WriteReg(R2, 0x20000418)
T34F4 001:064.730 - 0.042ms returns 0
T34F4 001:064.773 JLINK_WriteReg(R3, 0x00000000)
T34F4 001:064.815 - 0.041ms returns 0
T34F4 001:064.897 JLINK_WriteReg(R4, 0x00000000)
T34F4 001:064.941 - 0.044ms returns 0
T34F4 001:064.985 JLINK_WriteReg(R5, 0x00000000)
T34F4 001:065.027 - 0.041ms returns 0
T34F4 001:065.070 JLINK_WriteReg(R6, 0x00000000)
T34F4 001:065.112 - 0.041ms returns 0
T34F4 001:065.155 JLINK_WriteReg(R7, 0x00000000)
T34F4 001:065.197 - 0.041ms returns 0
T34F4 001:065.240 JLINK_WriteReg(R8, 0x00000000)
T34F4 001:065.282 - 0.041ms returns 0
T34F4 001:065.329 JLINK_WriteReg(R9, 0x20000414)
T34F4 001:065.373 - 0.043ms returns 0
T34F4 001:065.417 JLINK_WriteReg(R10, 0x00000000)
T34F4 001:065.459 - 0.042ms returns 0
T34F4 001:065.503 JLINK_WriteReg(R11, 0x00000000)
T34F4 001:065.545 - 0.042ms returns 0
T34F4 001:065.589 JLINK_WriteReg(R12, 0x00000000)
T34F4 001:065.631 - 0.042ms returns 0
T34F4 001:065.675 JLINK_WriteReg(R13 (SP), 0x20008000)
T34F4 001:065.718 - 0.043ms returns 0
T34F4 001:065.762 JLINK_WriteReg(R14, 0x20000001)
T34F4 001:065.806 - 0.043ms returns 0
T34F4 001:065.851 JLINK_WriteReg(R15 (PC), 0x2000029A)
T34F4 001:065.945 - 0.094ms returns 0
T34F4 001:065.989 JLINK_WriteReg(XPSR, 0x01000000)
T34F4 001:066.032 - 0.043ms returns 0
T34F4 001:066.076 JLINK_WriteReg(MSP, 0x20008000)
T34F4 001:066.119 - 0.043ms returns 0
T34F4 001:066.163 JLINK_WriteReg(PSP, 0x20008000)
T34F4 001:066.205 - 0.042ms returns 0
T34F4 001:066.248 JLINK_WriteReg(CFBP, 0x00000000)
T34F4 001:066.291 - 0.042ms returns 0
T34F4 001:066.336 JLINK_SetBPEx(Addr = 0x20000000, Type = 0xFFFFFFF2)
T34F4 001:066.384 - 0.047ms returns 0x0000000B
T34F4 001:066.430 JLINK_Go()
T34F4 001:066.484   CPU_WriteMem(4 bytes @ 0xE0002000)
T34F4 001:067.153   CPU_ReadMem(4 bytes @ 0xE0001000)
T34F4 001:074.597 - 8.165ms 
T34F4 001:074.728 JLINK_IsHalted()
T34F4 001:075.493 - 0.765ms returns FALSE
T34F4 001:075.573 JLINK_HasError()
T34F4 001:077.109 JLINK_IsHalted()
T34F4 001:078.097 - 0.986ms returns FALSE
T34F4 001:078.212 JLINK_HasError()
T34F4 001:080.155 JLINK_IsHalted()
T34F4 001:081.090 - 0.934ms returns FALSE
T34F4 001:081.197 JLINK_HasError()
T34F4 001:083.068 JLINK_IsHalted()
T34F4 001:089.806 - 6.737ms returns TRUE
T34F4 001:089.899 JLINK_ReadReg(R15 (PC))
T34F4 001:089.957 - 0.057ms returns 0x20000000
T34F4 001:090.052 JLINK_ClrBPEx(BPHandle = 0x0000000B)
T34F4 001:090.098 - 0.045ms returns 0x00
T34F4 001:090.227 JLINK_ReadReg(R0)
T34F4 001:090.270 - 0.043ms returns 0x00000000
T34F4 001:091.251 JLINK_WriteMem(0x20000418, 0x3E8 Bytes, ...)
T34F4 001:091.348   Data:  08 31 09 68 21 F0 01 01 11 4A 08 32 11 60 12 1F ...
T34F4 001:091.439   CPU_WriteMem(1000 bytes @ 0x20000418)
T34F4 001:104.782 - 13.530ms returns 0x3E8
T34F4 001:104.874 JLINK_WriteMem(0x20000800, 0x18 Bytes, ...)
T34F4 001:104.919   Data:  D0 BB AD 48 10 38 00 68 C0 F3 80 00 18 B1 E0 68 ...
T34F4 001:104.996   CPU_WriteMem(24 bytes @ 0x20000800)
T34F4 001:106.015 - 1.140ms returns 0x18
T34F4 001:106.091 JLINK_HasError()
T34F4 001:106.139 JLINK_WriteReg(R0, 0x08100400)
T34F4 001:106.184 - 0.045ms returns 0
T34F4 001:106.231 JLINK_WriteReg(R1, 0x00000400)
T34F4 001:106.274 - 0.042ms returns 0
T34F4 001:106.318 JLINK_WriteReg(R2, 0x20000418)
T34F4 001:106.361 - 0.042ms returns 0
T34F4 001:106.406 JLINK_WriteReg(R3, 0x00000000)
T34F4 001:106.451 - 0.045ms returns 0
T34F4 001:106.496 JLINK_WriteReg(R4, 0x00000000)
T34F4 001:106.539 - 0.042ms returns 0
T34F4 001:106.584 JLINK_WriteReg(R5, 0x00000000)
T34F4 001:106.632 - 0.047ms returns 0
T34F4 001:106.678 JLINK_WriteReg(R6, 0x00000000)
T34F4 001:106.720 - 0.042ms returns 0
T34F4 001:106.764 JLINK_WriteReg(R7, 0x00000000)
T34F4 001:106.807 - 0.042ms returns 0
T34F4 001:106.851 JLINK_WriteReg(R8, 0x00000000)
T34F4 001:106.893 - 0.042ms returns 0
T34F4 001:106.936 JLINK_WriteReg(R9, 0x20000414)
T34F4 001:106.978 - 0.041ms returns 0
T34F4 001:107.021 JLINK_WriteReg(R10, 0x00000000)
T34F4 001:107.063 - 0.041ms returns 0
T34F4 001:107.106 JLINK_WriteReg(R11, 0x00000000)
T34F4 001:107.148 - 0.041ms returns 0
T34F4 001:107.194 JLINK_WriteReg(R12, 0x00000000)
T34F4 001:107.238 - 0.043ms returns 0
T34F4 001:107.283 JLINK_WriteReg(R13 (SP), 0x20008000)
T34F4 001:107.326 - 0.043ms returns 0
T34F4 001:107.370 JLINK_WriteReg(R14, 0x20000001)
T34F4 001:107.412 - 0.042ms returns 0
T34F4 001:107.456 JLINK_WriteReg(R15 (PC), 0x2000029A)
T34F4 001:107.498 - 0.042ms returns 0
T34F4 001:107.542 JLINK_WriteReg(XPSR, 0x01000000)
T34F4 001:107.584 - 0.042ms returns 0
T34F4 001:107.629 JLINK_WriteReg(MSP, 0x20008000)
T34F4 001:107.678 - 0.048ms returns 0
T34F4 001:107.758 JLINK_WriteReg(PSP, 0x20008000)
T34F4 001:107.806 - 0.047ms returns 0
T34F4 001:107.909 JLINK_WriteReg(CFBP, 0x00000000)
T34F4 001:107.961 - 0.052ms returns 0
T34F4 001:108.012 JLINK_SetBPEx(Addr = 0x20000000, Type = 0xFFFFFFF2)
T34F4 001:108.060 - 0.048ms returns 0x0000000C
T34F4 001:108.109 JLINK_Go()
T34F4 001:108.167   CPU_WriteMem(4 bytes @ 0xE0002000)
T34F4 001:108.936   CPU_ReadMem(4 bytes @ 0xE0001000)
T34F4 001:115.986 - 7.875ms 
T34F4 001:116.078 JLINK_IsHalted()
T34F4 001:116.800 - 0.721ms returns FALSE
T34F4 001:116.881 JLINK_HasError()
T34F4 001:118.211 JLINK_IsHalted()
T34F4 001:118.916 - 0.704ms returns FALSE
T34F4 001:118.992 JLINK_HasError()
T34F4 001:120.245 JLINK_IsHalted()
T34F4 001:120.975 - 0.729ms returns FALSE
T34F4 001:121.052 JLINK_HasError()
T34F4 001:122.243 JLINK_IsHalted()
T34F4 001:122.943 - 0.699ms returns FALSE
T34F4 001:123.020 JLINK_HasError()
T34F4 001:124.238 JLINK_IsHalted()
T34F4 001:130.649 - 6.409ms returns TRUE
T34F4 001:130.749 JLINK_ReadReg(R15 (PC))
T34F4 001:130.807 - 0.057ms returns 0x20000000
T34F4 001:130.853 JLINK_ClrBPEx(BPHandle = 0x0000000C)
T34F4 001:130.897 - 0.043ms returns 0x00
T34F4 001:130.941 JLINK_ReadReg(R0)
T34F4 001:130.984 - 0.042ms returns 0x00000000
T34F4 001:131.661 JLINK_WriteMem(0x20000418, 0x3E8 Bytes, ...)
T34F4 001:131.725   Data:  10 38 00 68 20 F0 19 00 E1 68 08 43 A4 49 10 39 ...
T34F4 001:131.798   CPU_WriteMem(1000 bytes @ 0x20000418)
T34F4 001:145.156 - 13.494ms returns 0x3E8
T34F4 001:145.326 JLINK_WriteMem(0x20000800, 0x18 Bytes, ...)
T34F4 001:145.373   Data:  00 F4 80 70 00 28 F2 D0 00 BF A0 68 01 28 08 D1 ...
T34F4 001:145.448   CPU_WriteMem(24 bytes @ 0x20000800)
T34F4 001:146.461 - 1.134ms returns 0x18
T34F4 001:146.569 JLINK_HasError()
